T49FC 2521:225 SEGGER J-Link V6.46 Log File (0000ms, 13095ms total)
T49FC 2521:225 DLL Compiled: May 23 2019 17:49:56 (0000ms, 13095ms total)
T49FC 2521:225 Logging started @ 2023-01-24 12:20 (0000ms, 13095ms total)
T49FC 2521:225 JLINK_SetWarnOutHandler(...) (0000ms, 13095ms total)
T49FC 2521:225 JLINK_OpenEx(...)
Firmware: J-Link OpenSDA compiled May 27 2019 10:59:53
Hardware: V1.00
S/N: 621000000
TELNET listener socket opened on port 19021WEBSRV 
Starting webserver (0052ms, 13147ms total)
T49FC 2521:225 WEBSRV Webserver running on local port 19080 (0052ms, 13147ms total)
T49FC 2521:225   returns O.K. (0052ms, 13147ms total)
T49FC 2521:277 JLINK_GetEmuCaps()  returns 0x986A5A33 (0000ms, 13147ms total)
T49FC 2521:277 JLINK_TIF_GetAvailable(...) (0001ms, 13148ms total)
T49FC 2521:278 JLINK_SetErrorOutHandler(...) (0000ms, 13148ms total)
T49FC 2521:278 JLINK_ExecCommand("ProjectFile = "B:\Studia_AGH.2019-\#5Semestr 5\TMP2\KOSCI_ver3\JLinkSettings.ini"", ...).   returns 0x00 (0001ms, 13149ms total)
T49FC 2521:281 JLINK_ExecCommand("Device = MKL05Z32xxx4", ...). Device "MKL05Z32XXX4" selected.  returns 0x00 (0002ms, 13151ms total)
T49FC 2521:283 JLINK_ExecCommand("DisableConnectionTimeout", ...).   returns 0x01 (0000ms, 13151ms total)
T49FC 2521:283 JLINK_GetHardwareVersion()  returns 0x2710 (0000ms, 13151ms total)
T49FC 2521:283 JLINK_GetDLLVersion()  returns 64600 (0000ms, 13151ms total)
T49FC 2521:283 JLINK_GetFirmwareString(...) (0000ms, 13151ms total)
T49FC 2521:289 JLINK_GetDLLVersion()  returns 64600 (0000ms, 13151ms total)
T49FC 2521:289 JLINK_GetCompileDateTime() (0000ms, 13151ms total)
T49FC 2521:291 JLINK_GetFirmwareString(...) (0000ms, 13151ms total)
T49FC 2521:293 JLINK_GetHardwareVersion()  returns 0x2710 (0000ms, 13151ms total)
T49FC 2521:297 JLINK_TIF_Select(JLINKARM_TIF_SWD)  returns 0x00 (0001ms, 13152ms total)
T49FC 2521:298 JLINK_SetSpeed(2000) (0000ms, 13152ms total)
T49FC 2521:298 JLINK_GetId()ConfigTargetSettings() start J-Link Script File: Executing ConfigTargetSettings() ConfigTargetSettings() endInitTarget() start J-Link Script File: Executing InitTarget() InitTarget() >0x10B TIF> >0x0D TIF> >0x28 TIF> >0x0D TIF> >0x28 TIF> >0x0D TIF> >0x28 TIF> >0x0D TIF> >0x28 TIF> >0x0D TIF> >0x21 TIF> >0x0D TIF> >0x28 TIF> >0x0D TIF> >0x21 TIF> >0x0D TIF> >0x21 TIF> >0x0D TIF> >0x21 TIF> >0x0D TIF> >0x21 TIF> >0x0D TIF> >0x21 TIF> >0x0D TIF> >0x21 TIF> >0x0D TIF> >0x21 TIF>
 >0x0D TIF> >0x21 TIF> >0x0D TIF> >0x21 TIF> >0x0D TIF> >0x21 TIF> >0x0D TIF> >0x21 TIF> >0x0D TIF> >0x21 TIF> >0x0D TIF> >0x21 TIF> >0x0D TIF> >0x21 TIF> >0x0D TIF> >0x21 TIF> >0x0D TIF> >0x21 TIF> >0x0D TIF> >0x21 TIF> >0x0D TIF> >0x21 TIF> >0x0D TIF> >0x21 TIF> >0x0D TIF> >0x21 TIF> >0x0D TIF> >0x21 TIF> >0x0D TIF> >0x21 TIF> >0x0D TIF> >0x21 TIF> >0x0D TIF> >0x21 TIF> >0x0D TIF> >0x21 TIF> >0x0D TIF> >0x21 TIF> >0x0D TIF> >0x21 TIF> >0x0D TIF> >0x21 TIF> >0x0D TIF> >0x21 TIF> >0x0D TIF> >0x21 TIF>
 >0x0D TIF> >0x21 TIF> >0x0D TIF> >0x21 TIF> >0x0D TIF> >0x21 TIF> >0x0D TIF> >0x21 TIF> >0x0D TIF> >0x21 TIF> >0x0D TIF> >0x21 TIF> >0x0D TIF> >0x21 TIF> >0x0D TIF> >0x21 TIF> >0x0D TIF> >0x21 TIF> >0x0D TIF> >0x21 TIF> >0x0D TIF> >0x21 TIF> >0x0D TIF> >0x21 TIF> >0x0D TIF> >0x21 TIF> >0x0D TIF> >0x21 TIF> >0x0D TIF> >0x21 TIF> >0x0D TIF> >0x21 TIF> >0x0D TIF> >0x21 TIF> >0x0D TIF> >0x21 TIF> >0x0D TIF> >0x21 TIF> >0x0D TIF> >0x21 TIF> >0x0D TIF> >0x21 TIF> >0x0D TIF> >0x21 TIF> >0x0D TIF> >0x21 TIF>
 >0x0D TIF> >0x21 TIF> >0x0D TIF> >0x21 TIF> >0x0D TIF> >0x21 TIF> >0x0D TIF> >0x21 TIF> >0x0D TIF> >0x21 TIF> >0x0D TIF> >0x21 TIF> >0x0D TIF> >0x21 TIF> >0x0D TIF> >0x21 TIF> >0x0D TIF> >0x21 TIF> >0x0D TIF> >0x21 TIF> >0x0D TIF> >0x21 TIF> >0x0D TIF> >0x21 TIF> >0x0D TIF> >0x21 TIF> >0x0D TIF> >0x21 TIF> >0x0D TIF> >0x21 TIF> >0x0D TIF> >0x21 TIF> >0x0D TIF> >0x21 TIF> >0x0D TIF> >0x21 TIF> >0x0D TIF> >0x21 TIF> >0x0D TIF> >0x21 TIF> >0x0D TIF> >0x21 TIF> >0x0D TIF> >0x21 TIF> >0x0D TIF> >0x21 TIF>
 >0x0D TIF> >0x21 TIF> >0x0D TIF> >0x21 TIF> >0x0D TIF> >0x21 TIF> >0x0D TIF> >0x21 TIF> >0x0D TIF> >0x21 TIF> >0x0D TIF> >0x21 TIF> >0x0D TIF> >0x21 TIF> >0x0D TIF> >0x21 TIF> >0x0D TIF> >0x21 TIF> >0x0D TIF> >0x21 TIF> >0x0D TIF> >0x21 TIF> >0x0D TIF> >0x21 TIF> >0x0D TIF> >0x21 TIF> >0x0D TIF> >0x21 TIF> >0x0D TIF> >0x21 TIF> >0x0D TIF> >0x21 TIF> >0x0D TIF> >0x21 TIF> >0x0D TIF> >0x21 TIF> >0x0D TIF> >0x21 TIF> >0x0D TIF> >0x21 TIF> >0x0D TIF> >0x21 TIF> >0x0D TIF> >0x21 TIF> >0x0D TIF> >0x21 TIF>
 >0x0D TIF> >0x21 TIF> >0x0D TIF> >0x21 TIF> >0x0D TIF> >0x21 TIF> >0x0D TIF> >0x21 TIF> >0x0D TIF> >0x21 TIF> >0x0D TIF> >0x21 TIF> >0x0D TIF> >0x21 TIF> >0x0D TIF> >0x21 TIF> >0x0D TIF> >0x21 TIF> >0x0D TIF> >0x21 TIF> >0x0D TIF> >0x21 TIF> >0x0D TIF> >0x21 TIF> >0x0D TIF> >0x21 TIF> >0x0D TIF> >0x28 TIF> >0x0D TIF> >0x28 TIF> >0x0D TIF> >0x28 TIF> >0x0D TIF> >0x21 TIF> >0x0D TIF> >0x21 TIF>InitTarget() end >0x10B TIF>Found SW-DP with ID 0x0BC11477 >0x0D TIF> >0x28 TIF> >0x0D TIF> >0x28 TIF> >0x0D TIF>
 >0x28 TIF> >0x0D TIF> >0x28 TIF> >0x0D TIF> >0x21 TIF> >0x0D TIF> >0x28 TIF>AP map detection skipped. Manually configured AP map found.AP[0]: AHB-AP (IDR: Not set)AP[1]: CUSTOM-AP (IDR: Not set) >0x42 TIF> >0x28 TIF> >0x0D TIF> >0x28 TIF> >0x0D TIF> >0x21 TIF> >0x0D TIF> >0x21 TIF> >0x42 TIF> >0x28 TIF> >0x0D TIF> >0x28 TIF> >0x0D TIF> >0x28 TIF> >0x0D TIF> >0x21 TIF> >0x0D TIF> >0x21 TIF>AP[0]: Core foundAP[0]: AHB-AP ROM base: 0xF0002000 >0x0D TIF> >0x28 TIF> >0x0D TIF> >0x28 TIF> >0x0D TIF>
 >0x28 TIF> >0x0D TIF> >0x21 TIF> >0x0D TIF> >0x21 TIF>CPUID register: 0x410CC600. Implementer code: 0x41 (ARM)Found Cortex-M0 r0p0, Little endian. -- Max. mem block: 0x00001140 -- CPU_ReadMem(4 bytes @ 0xE000EDF0) -- CPU_WriteMem(4 bytes @ 0xE000EDF0) -- CPU_ReadMem(4 bytes @ 0xE0002000)FPUnit: 2 code (BP) slots and 0 literal slots -- CPU_ReadMem(4 bytes @ 0xE000EDFC) -- CPU_WriteMem(4 bytes @ 0xE000EDFC) -- CPU_ReadMem(4 bytes @ 0xE0001000) -- CPU_WriteMem(4 bytes @ 0xE0001000)CoreSight components:
ROMTbl[0] @ F0002000 -- CPU_ReadMem(16 bytes @ 0xF0002000) -- CPU_ReadMem(16 bytes @ 0xF0000FF0) -- CPU_ReadMem(16 bytes @ 0xF0000FE0)ROMTbl[0][0]: F0000000, CID: B105900D, PID: 000BB932 MTB-M0+ -- CPU_ReadMem(16 bytes @ 0xF0001FF0) -- CPU_ReadMem(16 bytes @ 0xF0001FE0)ROMTbl[0][1]: F0001000, CID: B105900D, PID: 0008E000 MTBDWT -- CPU_ReadMem(16 bytes @ 0xE00FFFF0) -- CPU_ReadMem(16 bytes @ 0xE00FFFE0)ROMTbl[0][2]: E00FF000, CID: B105100D, PID: 000BB4C0 ROM TableROMTbl[1] @ E00FF000
 -- CPU_ReadMem(16 bytes @ 0xE00FF000) -- CPU_ReadMem(16 bytes @ 0xE000EFF0) -- CPU_ReadMem(16 bytes @ 0xE000EFE0)ROMTbl[1][0]: E000E000, CID: B105E00D, PID: 000BB008 SCS -- CPU_ReadMem(16 bytes @ 0xE0001FF0) -- CPU_ReadMem(16 bytes @ 0xE0001FE0)ROMTbl[1][1]: E0001000, CID: B105E00D, PID: 000BB00A DWT -- CPU_ReadMem(16 bytes @ 0xE0002FF0) -- CPU_ReadMem(16 bytes @ 0xE0002FE0)ROMTbl[1][2]: E0002000, CID: B105E00D, PID: 000BB00B FPB >0x0D TIF> >0x21 TIF>  returns 0x0BC11477 (0257ms, 13409ms total)
T49FC 2521:555 JLINK_GetDLLVersion()  returns 64600 (0000ms, 13409ms total)
T49FC 2521:555 JLINK_CORE_GetFound()  returns 0x60000FF (0000ms, 13409ms total)
T49FC 2521:555 JLINK_GetDebugInfo(0x100 = JLINKARM_ROM_TABLE_ADDR_INDEX) -- Value=0xF0002000  returns 0x00 (0000ms, 13409ms total)
T49FC 2521:556 JLINK_GetDebugInfo(0x100 = JLINKARM_ROM_TABLE_ADDR_INDEX) -- Value=0xF0002000  returns 0x00 (0001ms, 13410ms total)
T49FC 2521:557 JLINK_GetDebugInfo(0x101 = JLINKARM_DEBUG_INFO_ETM_ADDR_INDEX) -- Value=0x00000000  returns 0x00 (0000ms, 13410ms total)
T49FC 2521:557 JLINK_ReadMemEx(0xE0041FF0, 0x0010 Bytes, ..., Flags = 0x02000004) -- CPU_ReadMem(16 bytes @ 0xE0041FF0) - Data: 00 00 00 00 00 00 00 00 00 00 00 00 00 00 00 00  returns 0x10 (0000ms, 13410ms total)
T49FC 2521:557 JLINK_GetDebugInfo(0x102 = JLINKARM_DEBUG_INFO_MTB_ADDR_INDEX) -- Value=0xF0000000  returns 0x00 (0000ms, 13410ms total)
T49FC 2521:557 JLINK_CORE_GetFound()  returns 0x60000FF (0000ms, 13410ms total)
T49FC 2521:557 JLINK_GetDebugInfo(0x103 = JLINKARM_DEBUG_INFO_TPIU_ADDR_INDEX) -- Value=0x00000000  returns 0x00 (0000ms, 13410ms total)
T49FC 2521:557 JLINK_ReadMemEx(0xE0040FF0, 0x0010 Bytes, ..., Flags = 0x02000004) -- CPU_ReadMem(16 bytes @ 0xE0040FF0) - Data: 00 00 00 00 00 00 00 00 00 00 00 00 00 00 00 00  returns 0x10 (0001ms, 13411ms total)
T49FC 2521:558 JLINK_GetDebugInfo(0x104 = JLINKARM_DEBUG_INFO_ITM_ADDR_INDEX) -- Value=0xE0000000  returns 0x00 (0000ms, 13411ms total)
T49FC 2521:558 JLINK_GetDebugInfo(0x105 = JLINKARM_DEBUG_INFO_DWT_ADDR_INDEX) -- Value=0xE0001000  returns 0x00 (0000ms, 13411ms total)
T49FC 2521:558 JLINK_GetDebugInfo(0x106 = JLINKARM_DEBUG_INFO_FPB_ADDR_INDEX) -- Value=0xE0002000  returns 0x00 (0000ms, 13411ms total)
T49FC 2521:558 JLINK_GetDebugInfo(0x107 = JLINKARM_DEBUG_INFO_NVIC_ADDR_INDEX) -- Value=0xE000E000  returns 0x00 (0000ms, 13411ms total)
T49FC 2521:558 JLINK_GetDebugInfo(0x10C = JLINKARM_DEBUG_INFO_DBG_ADDR_INDEX) -- Value=0xE000EDF0  returns 0x00 (0000ms, 13411ms total)
T49FC 2521:558 JLINK_GetDebugInfo(0x01 = Unknown) -- Value=0x00000000  returns 0x00 (0000ms, 13411ms total)
T49FC 2521:558 JLINK_ReadMemU32(0xE000ED00, 0x0001 Items, ...) -- CPU_ReadMem(4 bytes @ 0xE000ED00) - Data: 00 C6 0C 41  returns 1 (0001ms, 13412ms total)
T49FC 2521:559 JLINK_GetDebugInfo(0x10F = JLINKARM_DEBUG_INFO_HAS_CORTEX_M_SECURITY_EXT_INDEX) -- Value=0x00000000  returns 0x00 (0000ms, 13412ms total)
T49FC 2521:559 JLINK_SetResetType(JLINKARM_CM3_RESET_TYPE_NORMAL)  returns JLINKARM_CM3_RESET_TYPE_NORMAL (0000ms, 13412ms total)
T49FC 2521:559 JLINK_Reset() -- CPU is running -- CPU_WriteMem(4 bytes @ 0xE000EDF0) -- CPU is running -- CPU_WriteMem(4 bytes @ 0xE000EDFC)Reset: Halt core after reset via DEMCR.VC_CORERESET. >0x35 TIF>Reset: Reset device via AIRCR.SYSRESETREQ. -- CPU is running -- CPU_WriteMem(4 bytes @ 0xE000ED0C) >0x0D TIF> >0x28 TIF> -- CPU_ReadMem(4 bytes @ 0xE000EDF0) -- CPU_ReadMem(4 bytes @ 0xE000EDF0) -- CPU is running -- CPU_WriteMem(4 bytes @ 0xE000EDF0) -- CPU is running -- CPU_WriteMem(4 bytes @ 0xE000EDFC)
 -- CPU_ReadMem(4 bytes @ 0xE000EDF0) -- CPU_WriteMem(4 bytes @ 0xE0002000) -- CPU_ReadMem(4 bytes @ 0xE000EDFC) -- CPU_ReadMem(4 bytes @ 0xE0001000) -- CPU_WriteMem(4 bytes @ 0xE0001000) (0078ms, 13490ms total)
T49FC 2521:638 JLINK_Halt()  returns 0x00 (0000ms, 13490ms total)
T49FC 2521:638 JLINK_ReadMemU32(0xE000EDF0, 0x0001 Items, ...) -- CPU_ReadMem(4 bytes @ 0xE000EDF0) - Data: 03 00 03 00  returns 1 (0001ms, 13491ms total)
T49FC 2521:639 JLINK_WriteU32(0xE000EDF0, 0xA05F0003) -- CPU_WriteMem(4 bytes @ 0xE000EDF0)  returns 0 (0000ms, 13491ms total)
T49FC 2521:639 JLINK_WriteU32(0xE000EDFC, 0x01000000) -- CPU_WriteMem(4 bytes @ 0xE000EDFC)  returns 0 (0001ms, 13492ms total)
T49FC 2521:656 JLINK_GetHWStatus(...)  returns 0x00 (0001ms, 13493ms total)
T49FC 2521:665 JLINK_GetNumBPUnits(Type = 0xFFFFFF00)  returns 0x02 (0000ms, 13493ms total)
T49FC 2521:665 JLINK_GetNumBPUnits(Type = 0xF0)  returns 0x2000 (0000ms, 13493ms total)
T49FC 2521:665 JLINK_GetNumWPUnits()  returns 0x02 (0000ms, 13493ms total)
T49FC 2521:671 JLINK_GetSpeed()  returns 0x595 (0000ms, 13493ms total)
T49FC 2521:674 JLINK_ReadMemU32(0xE000E004, 0x0001 Items, ...) -- CPU_ReadMem(4 bytes @ 0xE000E004) - Data: 00 00 00 00  returns 1 (0002ms, 13495ms total)
T49FC 2521:676 JLINK_Halt()  returns 0x00 (0000ms, 13495ms total)
T49FC 2521:676 JLINK_IsHalted()  returns TRUE (0000ms, 13495ms total)
T49FC 2521:680 JLINK_WriteMem(0x1FFFFC00, 0x05D0 Bytes, ...) - Data: 00 BE 0A E0 0D 78 2D 06 68 40 08 24 40 00 00 D3 ... -- CPU_WriteMem(1488 bytes @ 0x1FFFFC00)  returns 0x5D0 (0018ms, 13513ms total)
T49FC 2521:698 JLINK_WriteReg(R0, 0x00000000)  returns 0x00 (0000ms, 13513ms total)
T49FC 2521:698 JLINK_WriteReg(R1, 0x00B71B00)  returns 0x00 (0000ms, 13513ms total)
T49FC 2521:698 JLINK_WriteReg(R2, 0x00000001)  returns 0x00 (0000ms, 13513ms total)
T49FC 2521:698 JLINK_WriteReg(R3, 0x00000000)  returns 0x00 (0000ms, 13513ms total)
T49FC 2521:698 JLINK_WriteReg(R4, 0x00000000)  returns 0x00 (0000ms, 13513ms total)
T49FC 2521:698 JLINK_WriteReg(R5, 0x00000000)  returns 0x00 (0000ms, 13513ms total)
T49FC 2521:698 JLINK_WriteReg(R6, 0x00000000)  returns 0x00 (0000ms, 13513ms total)
T49FC 2521:698 JLINK_WriteReg(R7, 0x00000000)  returns 0x00 (0000ms, 13513ms total)
T49FC 2521:698 JLINK_WriteReg(R8, 0x00000000)  returns 0x00 (0000ms, 13513ms total)
T49FC 2521:698 JLINK_WriteReg(R9, 0x200001C8)  returns 0x00 (0000ms, 13513ms total)
T49FC 2521:698 JLINK_WriteReg(R10, 0x00000000)  returns 0x00 (0000ms, 13513ms total)
T49FC 2521:698 JLINK_WriteReg(R11, 0x00000000)  returns 0x00 (0000ms, 13513ms total)
T49FC 2521:698 JLINK_WriteReg(R12, 0x00000000)  returns 0x00 (0000ms, 13513ms total)
T49FC 2521:698 JLINK_WriteReg(R13 (SP), 0x20000C00)  returns 0x00 (0000ms, 13513ms total)
T49FC 2521:698 JLINK_WriteReg(R14, 0x1FFFFC01)  returns 0x00 (0000ms, 13513ms total)
T49FC 2521:698 JLINK_WriteReg(R15 (PC), 0x1FFFFC20)  returns 0x00 (0000ms, 13513ms total)
T49FC 2521:698 JLINK_WriteReg(XPSR, 0x01000000)  returns 0x00 (0000ms, 13513ms total)
T49FC 2521:698 JLINK_WriteReg(MSP, 0x20000C00)  returns 0x00 (0000ms, 13513ms total)
T49FC 2521:698 JLINK_WriteReg(PSP, 0x20000C00)  returns 0x00 (0000ms, 13513ms total)
T49FC 2521:698 JLINK_WriteReg(CFBP, 0x00000000)  returns 0x00 (0000ms, 13513ms total)
T49FC 2521:698 JLINK_SetBPEx(Addr = 0x1FFFFC00, Type = 0xFFFFFFF2)  returns 0x00000001 (0000ms, 13513ms total)
T49FC 2521:698 JLINK_Go() -- CPU_WriteMem(4 bytes @ 0xE0002000) -- CPU_ReadMem(4 bytes @ 0xE0001000) -- CPU_WriteMem(4 bytes @ 0xE0001000) -- CPU_WriteMem(4 bytes @ 0xE0002008) -- CPU_WriteMem(4 bytes @ 0xE000200C) -- CPU_WriteMem(4 bytes @ 0xE0001004) (0011ms, 13524ms total)
T49FC 2521:709 JLINK_IsHalted()  returns TRUE (0005ms, 13529ms total)
T49FC 2521:714 JLINK_ReadReg(R15 (PC))  returns 0x1FFFFC00 (0000ms, 13524ms total)
T49FC 2521:714 JLINK_ClrBPEx(BPHandle = 0x00000001)  returns 0x00 (0000ms, 13524ms total)
T49FC 2521:714 JLINK_ReadReg(R0)  returns 0x00000000 (0000ms, 13524ms total)
T49FC 2521:715 JLINK_WriteReg(R0, 0x00000000)  returns 0x00 (0000ms, 13524ms total)
T49FC 2521:715 JLINK_WriteReg(R1, 0x00000400)  returns 0x00 (0000ms, 13524ms total)
T49FC 2521:715 JLINK_WriteReg(R2, 0x000000FF)  returns 0x00 (0000ms, 13524ms total)
T49FC 2521:715 JLINK_WriteReg(R3, 0x00000000)  returns 0x00 (0000ms, 13524ms total)
T49FC 2521:715 JLINK_WriteReg(R4, 0x00000000)  returns 0x00 (0000ms, 13524ms total)
T49FC 2521:715 JLINK_WriteReg(R5, 0x00000000)  returns 0x00 (0000ms, 13524ms total)
T49FC 2521:715 JLINK_WriteReg(R6, 0x00000000)  returns 0x00 (0000ms, 13524ms total)
T49FC 2521:715 JLINK_WriteReg(R7, 0x00000000)  returns 0x00 (0000ms, 13524ms total)
T49FC 2521:715 JLINK_WriteReg(R8, 0x00000000)  returns 0x00 (0000ms, 13524ms total)
T49FC 2521:715 JLINK_WriteReg(R9, 0x200001C8)  returns 0x00 (0000ms, 13524ms total)
T49FC 2521:715 JLINK_WriteReg(R10, 0x00000000)  returns 0x00 (0000ms, 13524ms total)
T49FC 2521:715 JLINK_WriteReg(R11, 0x00000000)  returns 0x00 (0000ms, 13524ms total)
T49FC 2521:715 JLINK_WriteReg(R12, 0x00000000)  returns 0x00 (0000ms, 13524ms total)
T49FC 2521:715 JLINK_WriteReg(R13 (SP), 0x20000C00)  returns 0x00 (0000ms, 13524ms total)
T49FC 2521:715 JLINK_WriteReg(R14, 0x1FFFFC01)  returns 0x00 (0000ms, 13524ms total)
T49FC 2521:715 JLINK_WriteReg(R15 (PC), 0x1FFFFC68)  returns 0x00 (0000ms, 13524ms total)
T49FC 2521:715 JLINK_WriteReg(XPSR, 0x01000000)  returns 0x00 (0000ms, 13524ms total)
T49FC 2521:715 JLINK_WriteReg(MSP, 0x20000C00)  returns 0x00 (0000ms, 13524ms total)
T49FC 2521:715 JLINK_WriteReg(PSP, 0x20000C00)  returns 0x00 (0000ms, 13524ms total)
T49FC 2521:715 JLINK_WriteReg(CFBP, 0x00000000)  returns 0x00 (0000ms, 13524ms total)
T49FC 2521:715 JLINK_SetBPEx(Addr = 0x1FFFFC00, Type = 0xFFFFFFF2)  returns 0x00000002 (0000ms, 13524ms total)
T49FC 2521:715 JLINK_Go() -- CPU_WriteMem(4 bytes @ 0xE0002000) -- CPU_ReadMem(4 bytes @ 0xE0001000) -- CPU_WriteMem(4 bytes @ 0xE0001000) (0009ms, 13533ms total)
T49FC 2521:724 JLINK_IsHalted()  returns TRUE (0006ms, 13539ms total)
T49FC 2521:730 JLINK_ReadReg(R15 (PC))  returns 0x1FFFFC00 (0000ms, 13533ms total)
T49FC 2521:730 JLINK_ClrBPEx(BPHandle = 0x00000002)  returns 0x00 (0000ms, 13533ms total)
T49FC 2521:730 JLINK_ReadReg(R0)  returns 0x00000001 (0000ms, 13533ms total)
T49FC 2521:730 JLINK_WriteReg(R0, 0x00000000)  returns 0x00 (0000ms, 13533ms total)
T49FC 2521:730 JLINK_WriteReg(R1, 0x00000400)  returns 0x00 (0000ms, 13533ms total)
T49FC 2521:730 JLINK_WriteReg(R2, 0x000000FF)  returns 0x00 (0000ms, 13533ms total)
T49FC 2521:730 JLINK_WriteReg(R3, 0x00000000)  returns 0x00 (0000ms, 13533ms total)
T49FC 2521:730 JLINK_WriteReg(R4, 0x00000000)  returns 0x00 (0000ms, 13533ms total)
T49FC 2521:730 JLINK_WriteReg(R5, 0x00000000)  returns 0x00 (0000ms, 13533ms total)
T49FC 2521:730 JLINK_WriteReg(R6, 0x00000000)  returns 0x00 (0000ms, 13533ms total)
T49FC 2521:730 JLINK_WriteReg(R7, 0x00000000)  returns 0x00 (0000ms, 13533ms total)
T49FC 2521:730 JLINK_WriteReg(R8, 0x00000000)  returns 0x00 (0000ms, 13533ms total)
T49FC 2521:730 JLINK_WriteReg(R9, 0x200001C8)  returns 0x00 (0000ms, 13533ms total)
T49FC 2521:730 JLINK_WriteReg(R10, 0x00000000)  returns 0x00 (0000ms, 13533ms total)
T49FC 2521:730 JLINK_WriteReg(R11, 0x00000000)  returns 0x00 (0000ms, 13533ms total)
T49FC 2521:730 JLINK_WriteReg(R12, 0x00000000)  returns 0x00 (0000ms, 13533ms total)
T49FC 2521:730 JLINK_WriteReg(R13 (SP), 0x20000C00)  returns 0x00 (0000ms, 13533ms total)
T49FC 2521:730 JLINK_WriteReg(R14, 0x1FFFFC01)  returns 0x00 (0000ms, 13533ms total)
T49FC 2521:730 JLINK_WriteReg(R15 (PC), 0x1FFFFCBC)  returns 0x00 (0000ms, 13533ms total)
T49FC 2521:730 JLINK_WriteReg(XPSR, 0x01000000)  returns 0x00 (0000ms, 13533ms total)
T49FC 2521:730 JLINK_WriteReg(MSP, 0x20000C00)  returns 0x00 (0000ms, 13533ms total)
T49FC 2521:730 JLINK_WriteReg(PSP, 0x20000C00)  returns 0x00 (0000ms, 13533ms total)
T49FC 2521:730 JLINK_WriteReg(CFBP, 0x00000000)  returns 0x00 (0000ms, 13533ms total)
T49FC 2521:730 JLINK_SetBPEx(Addr = 0x1FFFFC00, Type = 0xFFFFFFF2)  returns 0x00000003 (0000ms, 13533ms total)
T49FC 2521:730 JLINK_Go() -- CPU_WriteMem(4 bytes @ 0xE0002000) -- CPU_ReadMem(4 bytes @ 0xE0001000) -- CPU_WriteMem(4 bytes @ 0xE0001000) (0010ms, 13543ms total)
T49FC 2521:740 JLINK_IsHalted()  returns FALSE (0001ms, 13544ms total)
T49FC 2521:775 JLINK_IsHalted()  returns TRUE (0005ms, 13548ms total)
T49FC 2521:780 JLINK_ReadReg(R15 (PC))  returns 0x1FFFFC00 (0000ms, 13543ms total)
T49FC 2521:780 JLINK_ClrBPEx(BPHandle = 0x00000003)  returns 0x00 (0000ms, 13543ms total)
T49FC 2521:780 JLINK_ReadReg(R0)  returns 0x00000000 (0000ms, 13543ms total)
T49FC 2521:780 JLINK_WriteReg(R0, 0x00000400)  returns 0x00 (0000ms, 13543ms total)
T49FC 2521:780 JLINK_WriteReg(R1, 0x00000400)  returns 0x00 (0000ms, 13543ms total)
T49FC 2521:780 JLINK_WriteReg(R2, 0x000000FF)  returns 0x00 (0001ms, 13544ms total)
T49FC 2521:781 JLINK_WriteReg(R3, 0x00000000)  returns 0x00 (0000ms, 13544ms total)
T49FC 2521:781 JLINK_WriteReg(R4, 0x00000000)  returns 0x00 (0000ms, 13544ms total)
T49FC 2521:781 JLINK_WriteReg(R5, 0x00000000)  returns 0x00 (0000ms, 13544ms total)
T49FC 2521:781 JLINK_WriteReg(R6, 0x00000000)  returns 0x00 (0000ms, 13544ms total)
T49FC 2521:781 JLINK_WriteReg(R7, 0x00000000)  returns 0x00 (0000ms, 13544ms total)
T49FC 2521:781 JLINK_WriteReg(R8, 0x00000000)  returns 0x00 (0000ms, 13544ms total)
T49FC 2521:781 JLINK_WriteReg(R9, 0x200001C8)  returns 0x00 (0000ms, 13544ms total)
T49FC 2521:781 JLINK_WriteReg(R10, 0x00000000)  returns 0x00 (0000ms, 13544ms total)
T49FC 2521:781 JLINK_WriteReg(R11, 0x00000000)  returns 0x00 (0000ms, 13544ms total)
T49FC 2521:781 JLINK_WriteReg(R12, 0x00000000)  returns 0x00 (0000ms, 13544ms total)
T49FC 2521:781 JLINK_WriteReg(R13 (SP), 0x20000C00)  returns 0x00 (0000ms, 13544ms total)
T49FC 2521:781 JLINK_WriteReg(R14, 0x1FFFFC01)  returns 0x00 (0000ms, 13544ms total)
T49FC 2521:781 JLINK_WriteReg(R15 (PC), 0x1FFFFC68)  returns 0x00 (0000ms, 13544ms total)
T49FC 2521:781 JLINK_WriteReg(XPSR, 0x01000000)  returns 0x00 (0000ms, 13544ms total)
T49FC 2521:781 JLINK_WriteReg(MSP, 0x20000C00)  returns 0x00 (0000ms, 13544ms total)
T49FC 2521:781 JLINK_WriteReg(PSP, 0x20000C00)  returns 0x00 (0000ms, 13544ms total)
T49FC 2521:781 JLINK_WriteReg(CFBP, 0x00000000)  returns 0x00 (0000ms, 13544ms total)
T49FC 2521:781 JLINK_SetBPEx(Addr = 0x1FFFFC00, Type = 0xFFFFFFF2)  returns 0x00000004 (0000ms, 13544ms total)
T49FC 2521:781 JLINK_Go() -- CPU_WriteMem(4 bytes @ 0xE0002000) -- CPU_ReadMem(4 bytes @ 0xE0001000) -- CPU_WriteMem(4 bytes @ 0xE0001000) (0008ms, 13552ms total)
T49FC 2521:789 JLINK_IsHalted()  returns TRUE (0006ms, 13558ms total)
T49FC 2521:795 JLINK_ReadReg(R15 (PC))  returns 0x1FFFFC00 (0000ms, 13552ms total)
T49FC 2521:795 JLINK_ClrBPEx(BPHandle = 0x00000004)  returns 0x00 (0000ms, 13552ms total)
T49FC 2521:795 JLINK_ReadReg(R0)  returns 0x00000001 (0000ms, 13552ms total)
T49FC 2521:795 JLINK_WriteReg(R0, 0x00000400)  returns 0x00 (0000ms, 13552ms total)
T49FC 2521:795 JLINK_WriteReg(R1, 0x00000400)  returns 0x00 (0000ms, 13552ms total)
T49FC 2521:795 JLINK_WriteReg(R2, 0x000000FF)  returns 0x00 (0000ms, 13552ms total)
T49FC 2521:795 JLINK_WriteReg(R3, 0x00000000)  returns 0x00 (0000ms, 13552ms total)
T49FC 2521:795 JLINK_WriteReg(R4, 0x00000000)  returns 0x00 (0000ms, 13552ms total)
T49FC 2521:795 JLINK_WriteReg(R5, 0x00000000)  returns 0x00 (0000ms, 13552ms total)
T49FC 2521:795 JLINK_WriteReg(R6, 0x00000000)  returns 0x00 (0000ms, 13552ms total)
T49FC 2521:795 JLINK_WriteReg(R7, 0x00000000)  returns 0x00 (0000ms, 13552ms total)
T49FC 2521:795 JLINK_WriteReg(R8, 0x00000000)  returns 0x00 (0000ms, 13552ms total)
T49FC 2521:795 JLINK_WriteReg(R9, 0x200001C8)  returns 0x00 (0000ms, 13552ms total)
T49FC 2521:795 JLINK_WriteReg(R10, 0x00000000)  returns 0x00 (0000ms, 13552ms total)
T49FC 2521:795 JLINK_WriteReg(R11, 0x00000000)  returns 0x00 (0000ms, 13552ms total)
T49FC 2521:795 JLINK_WriteReg(R12, 0x00000000)  returns 0x00 (0000ms, 13552ms total)
T49FC 2521:795 JLINK_WriteReg(R13 (SP), 0x20000C00)  returns 0x00 (0000ms, 13552ms total)
T49FC 2521:795 JLINK_WriteReg(R14, 0x1FFFFC01)  returns 0x00 (0000ms, 13552ms total)
T49FC 2521:795 JLINK_WriteReg(R15 (PC), 0x1FFFFCBC)  returns 0x00 (0000ms, 13552ms total)
T49FC 2521:795 JLINK_WriteReg(XPSR, 0x01000000)  returns 0x00 (0000ms, 13552ms total)
T49FC 2521:795 JLINK_WriteReg(MSP, 0x20000C00)  returns 0x00 (0000ms, 13552ms total)
T49FC 2521:795 JLINK_WriteReg(PSP, 0x20000C00)  returns 0x00 (0000ms, 13552ms total)
T49FC 2521:795 JLINK_WriteReg(CFBP, 0x00000000)  returns 0x00 (0000ms, 13552ms total)
T49FC 2521:795 JLINK_SetBPEx(Addr = 0x1FFFFC00, Type = 0xFFFFFFF2)  returns 0x00000005 (0000ms, 13552ms total)
T49FC 2521:795 JLINK_Go() -- CPU_WriteMem(4 bytes @ 0xE0002000) -- CPU_ReadMem(4 bytes @ 0xE0001000) -- CPU_WriteMem(4 bytes @ 0xE0001000) (0010ms, 13562ms total)
T49FC 2521:805 JLINK_IsHalted()  returns FALSE (0001ms, 13563ms total)
T49FC 2521:810 JLINK_IsHalted()  returns FALSE (0000ms, 13562ms total)
T49FC 2521:812 JLINK_IsHalted()  returns TRUE (0006ms, 13568ms total)
T49FC 2521:818 JLINK_ReadReg(R15 (PC))  returns 0x1FFFFC00 (0000ms, 13562ms total)
T49FC 2521:818 JLINK_ClrBPEx(BPHandle = 0x00000005)  returns 0x00 (0000ms, 13562ms total)
T49FC 2521:818 JLINK_ReadReg(R0)  returns 0x00000000 (0000ms, 13562ms total)
T49FC 2521:818 JLINK_WriteReg(R0, 0x00000800)  returns 0x00 (0000ms, 13562ms total)
T49FC 2521:818 JLINK_WriteReg(R1, 0x00000400)  returns 0x00 (0000ms, 13562ms total)
T49FC 2521:818 JLINK_WriteReg(R2, 0x000000FF)  returns 0x00 (0000ms, 13562ms total)
T49FC 2521:818 JLINK_WriteReg(R3, 0x00000000)  returns 0x00 (0000ms, 13562ms total)
T49FC 2521:818 JLINK_WriteReg(R4, 0x00000000)  returns 0x00 (0000ms, 13562ms total)
T49FC 2521:818 JLINK_WriteReg(R5, 0x00000000)  returns 0x00 (0000ms, 13562ms total)
T49FC 2521:818 JLINK_WriteReg(R6, 0x00000000)  returns 0x00 (0000ms, 13562ms total)
T49FC 2521:818 JLINK_WriteReg(R7, 0x00000000)  returns 0x00 (0000ms, 13562ms total)
T49FC 2521:818 JLINK_WriteReg(R8, 0x00000000)  returns 0x00 (0000ms, 13562ms total)
T49FC 2521:818 JLINK_WriteReg(R9, 0x200001C8)  returns 0x00 (0000ms, 13562ms total)
T49FC 2521:818 JLINK_WriteReg(R10, 0x00000000)  returns 0x00 (0000ms, 13562ms total)
T49FC 2521:818 JLINK_WriteReg(R11, 0x00000000)  returns 0x00 (0000ms, 13562ms total)
T49FC 2521:818 JLINK_WriteReg(R12, 0x00000000)  returns 0x00 (0000ms, 13562ms total)
T49FC 2521:818 JLINK_WriteReg(R13 (SP), 0x20000C00)  returns 0x00 (0000ms, 13562ms total)
T49FC 2521:818 JLINK_WriteReg(R14, 0x1FFFFC01)  returns 0x00 (0000ms, 13562ms total)
T49FC 2521:818 JLINK_WriteReg(R15 (PC), 0x1FFFFC68)  returns 0x00 (0000ms, 13562ms total)
T49FC 2521:818 JLINK_WriteReg(XPSR, 0x01000000)  returns 0x00 (0000ms, 13562ms total)
T49FC 2521:818 JLINK_WriteReg(MSP, 0x20000C00)  returns 0x00 (0000ms, 13562ms total)
T49FC 2521:818 JLINK_WriteReg(PSP, 0x20000C00)  returns 0x00 (0000ms, 13562ms total)
T49FC 2521:818 JLINK_WriteReg(CFBP, 0x00000000)  returns 0x00 (0000ms, 13562ms total)
T49FC 2521:818 JLINK_SetBPEx(Addr = 0x1FFFFC00, Type = 0xFFFFFFF2)  returns 0x00000006 (0000ms, 13562ms total)
T49FC 2521:818 JLINK_Go() -- CPU_WriteMem(4 bytes @ 0xE0002000) -- CPU_ReadMem(4 bytes @ 0xE0001000) -- CPU_WriteMem(4 bytes @ 0xE0001000) (0009ms, 13571ms total)
T49FC 2521:827 JLINK_IsHalted()  returns TRUE (0006ms, 13577ms total)
T49FC 2521:833 JLINK_ReadReg(R15 (PC))  returns 0x1FFFFC00 (0000ms, 13571ms total)
T49FC 2521:833 JLINK_ClrBPEx(BPHandle = 0x00000006)  returns 0x00 (0000ms, 13571ms total)
T49FC 2521:833 JLINK_ReadReg(R0)  returns 0x00000001 (0000ms, 13571ms total)
T49FC 2521:833 JLINK_WriteReg(R0, 0x00000800)  returns 0x00 (0000ms, 13571ms total)
T49FC 2521:833 JLINK_WriteReg(R1, 0x00000400)  returns 0x00 (0000ms, 13571ms total)
T49FC 2521:833 JLINK_WriteReg(R2, 0x000000FF)  returns 0x00 (0000ms, 13571ms total)
T49FC 2521:833 JLINK_WriteReg(R3, 0x00000000)  returns 0x00 (0000ms, 13571ms total)
T49FC 2521:833 JLINK_WriteReg(R4, 0x00000000)  returns 0x00 (0000ms, 13571ms total)
T49FC 2521:833 JLINK_WriteReg(R5, 0x00000000)  returns 0x00 (0000ms, 13571ms total)
T49FC 2521:833 JLINK_WriteReg(R6, 0x00000000)  returns 0x00 (0000ms, 13571ms total)
T49FC 2521:833 JLINK_WriteReg(R7, 0x00000000)  returns 0x00 (0000ms, 13571ms total)
T49FC 2521:833 JLINK_WriteReg(R8, 0x00000000)  returns 0x00 (0000ms, 13571ms total)
T49FC 2521:833 JLINK_WriteReg(R9, 0x200001C8)  returns 0x00 (0000ms, 13571ms total)
T49FC 2521:833 JLINK_WriteReg(R10, 0x00000000)  returns 0x00 (0000ms, 13571ms total)
T49FC 2521:833 JLINK_WriteReg(R11, 0x00000000)  returns 0x00 (0000ms, 13571ms total)
T49FC 2521:833 JLINK_WriteReg(R12, 0x00000000)  returns 0x00 (0000ms, 13571ms total)
T49FC 2521:833 JLINK_WriteReg(R13 (SP), 0x20000C00)  returns 0x00 (0000ms, 13571ms total)
T49FC 2521:833 JLINK_WriteReg(R14, 0x1FFFFC01)  returns 0x00 (0000ms, 13571ms total)
T49FC 2521:833 JLINK_WriteReg(R15 (PC), 0x1FFFFCBC)  returns 0x00 (0000ms, 13571ms total)
T49FC 2521:833 JLINK_WriteReg(XPSR, 0x01000000)  returns 0x00 (0000ms, 13571ms total)
T49FC 2521:833 JLINK_WriteReg(MSP, 0x20000C00)  returns 0x00 (0000ms, 13571ms total)
T49FC 2521:833 JLINK_WriteReg(PSP, 0x20000C00)  returns 0x00 (0000ms, 13571ms total)
T49FC 2521:833 JLINK_WriteReg(CFBP, 0x00000000)  returns 0x00 (0000ms, 13571ms total)
T49FC 2521:833 JLINK_SetBPEx(Addr = 0x1FFFFC00, Type = 0xFFFFFFF2)  returns 0x00000007 (0000ms, 13571ms total)
T49FC 2521:833 JLINK_Go() -- CPU_WriteMem(4 bytes @ 0xE0002000) -- CPU_ReadMem(4 bytes @ 0xE0001000) -- CPU_WriteMem(4 bytes @ 0xE0001000) (0009ms, 13580ms total)
T49FC 2521:842 JLINK_IsHalted()  returns FALSE (0001ms, 13581ms total)
T49FC 2521:845 JLINK_IsHalted()  returns FALSE (0001ms, 13581ms total)
T49FC 2521:847 JLINK_IsHalted()  returns FALSE (0001ms, 13581ms total)
T49FC 2521:850 JLINK_IsHalted()  returns TRUE (0006ms, 13586ms total)
T49FC 2521:856 JLINK_ReadReg(R15 (PC))  returns 0x1FFFFC00 (0000ms, 13580ms total)
T49FC 2521:856 JLINK_ClrBPEx(BPHandle = 0x00000007)  returns 0x00 (0000ms, 13580ms total)
T49FC 2521:856 JLINK_ReadReg(R0)  returns 0x00000000 (0000ms, 13580ms total)
T49FC 2521:856 JLINK_WriteReg(R0, 0x00000C00)  returns 0x00 (0000ms, 13580ms total)
T49FC 2521:856 JLINK_WriteReg(R1, 0x00000400)  returns 0x00 (0001ms, 13581ms total)
T49FC 2521:857 JLINK_WriteReg(R2, 0x000000FF)  returns 0x00 (0000ms, 13581ms total)
T49FC 2521:857 JLINK_WriteReg(R3, 0x00000000)  returns 0x00 (0000ms, 13581ms total)
T49FC 2521:857 JLINK_WriteReg(R4, 0x00000000)  returns 0x00 (0000ms, 13581ms total)
T49FC 2521:857 JLINK_WriteReg(R5, 0x00000000)  returns 0x00 (0000ms, 13581ms total)
T49FC 2521:857 JLINK_WriteReg(R6, 0x00000000)  returns 0x00 (0000ms, 13581ms total)
T49FC 2521:857 JLINK_WriteReg(R7, 0x00000000)  returns 0x00 (0000ms, 13581ms total)
T49FC 2521:857 JLINK_WriteReg(R8, 0x00000000)  returns 0x00 (0000ms, 13581ms total)
T49FC 2521:857 JLINK_WriteReg(R9, 0x200001C8)  returns 0x00 (0000ms, 13581ms total)
T49FC 2521:857 JLINK_WriteReg(R10, 0x00000000)  returns 0x00 (0000ms, 13581ms total)
T49FC 2521:857 JLINK_WriteReg(R11, 0x00000000)  returns 0x00 (0000ms, 13581ms total)
T49FC 2521:857 JLINK_WriteReg(R12, 0x00000000)  returns 0x00 (0000ms, 13581ms total)
T49FC 2521:857 JLINK_WriteReg(R13 (SP), 0x20000C00)  returns 0x00 (0000ms, 13581ms total)
T49FC 2521:857 JLINK_WriteReg(R14, 0x1FFFFC01)  returns 0x00 (0000ms, 13581ms total)
T49FC 2521:857 JLINK_WriteReg(R15 (PC), 0x1FFFFC68)  returns 0x00 (0000ms, 13581ms total)
T49FC 2521:857 JLINK_WriteReg(XPSR, 0x01000000)  returns 0x00 (0000ms, 13581ms total)
T49FC 2521:857 JLINK_WriteReg(MSP, 0x20000C00)  returns 0x00 (0000ms, 13581ms total)
T49FC 2521:857 JLINK_WriteReg(PSP, 0x20000C00)  returns 0x00 (0000ms, 13581ms total)
T49FC 2521:857 JLINK_WriteReg(CFBP, 0x00000000)  returns 0x00 (0000ms, 13581ms total)
T49FC 2521:857 JLINK_SetBPEx(Addr = 0x1FFFFC00, Type = 0xFFFFFFF2)  returns 0x00000008 (0000ms, 13581ms total)
T49FC 2521:857 JLINK_Go() -- CPU_WriteMem(4 bytes @ 0xE0002000) -- CPU_ReadMem(4 bytes @ 0xE0001000) -- CPU_WriteMem(4 bytes @ 0xE0001000) (0008ms, 13589ms total)
T49FC 2521:865 JLINK_IsHalted()  returns TRUE (0006ms, 13595ms total)
T49FC 2521:871 JLINK_ReadReg(R15 (PC))  returns 0x1FFFFC00 (0000ms, 13589ms total)
T49FC 2521:871 JLINK_ClrBPEx(BPHandle = 0x00000008)  returns 0x00 (0000ms, 13589ms total)
T49FC 2521:871 JLINK_ReadReg(R0)  returns 0x00000001 (0000ms, 13589ms total)
T49FC 2521:871 JLINK_WriteReg(R0, 0x00000C00)  returns 0x00 (0000ms, 13589ms total)
T49FC 2521:871 JLINK_WriteReg(R1, 0x00000400)  returns 0x00 (0000ms, 13589ms total)
T49FC 2521:871 JLINK_WriteReg(R2, 0x000000FF)  returns 0x00 (0000ms, 13589ms total)
T49FC 2521:871 JLINK_WriteReg(R3, 0x00000000)  returns 0x00 (0000ms, 13589ms total)
T49FC 2521:871 JLINK_WriteReg(R4, 0x00000000)  returns 0x00 (0000ms, 13589ms total)
T49FC 2521:871 JLINK_WriteReg(R5, 0x00000000)  returns 0x00 (0000ms, 13589ms total)
T49FC 2521:871 JLINK_WriteReg(R6, 0x00000000)  returns 0x00 (0000ms, 13589ms total)
T49FC 2521:871 JLINK_WriteReg(R7, 0x00000000)  returns 0x00 (0000ms, 13589ms total)
T49FC 2521:871 JLINK_WriteReg(R8, 0x00000000)  returns 0x00 (0000ms, 13589ms total)
T49FC 2521:871 JLINK_WriteReg(R9, 0x200001C8)  returns 0x00 (0000ms, 13589ms total)
T49FC 2521:871 JLINK_WriteReg(R10, 0x00000000)  returns 0x00 (0000ms, 13589ms total)
T49FC 2521:871 JLINK_WriteReg(R11, 0x00000000)  returns 0x00 (0000ms, 13589ms total)
T49FC 2521:871 JLINK_WriteReg(R12, 0x00000000)  returns 0x00 (0000ms, 13589ms total)
T49FC 2521:871 JLINK_WriteReg(R13 (SP), 0x20000C00)  returns 0x00 (0000ms, 13589ms total)
T49FC 2521:871 JLINK_WriteReg(R14, 0x1FFFFC01)  returns 0x00 (0000ms, 13589ms total)
T49FC 2521:871 JLINK_WriteReg(R15 (PC), 0x1FFFFCBC)  returns 0x00 (0000ms, 13589ms total)
T49FC 2521:871 JLINK_WriteReg(XPSR, 0x01000000)  returns 0x00 (0000ms, 13589ms total)
T49FC 2521:871 JLINK_WriteReg(MSP, 0x20000C00)  returns 0x00 (0000ms, 13589ms total)
T49FC 2521:871 JLINK_WriteReg(PSP, 0x20000C00)  returns 0x00 (0000ms, 13589ms total)
T49FC 2521:871 JLINK_WriteReg(CFBP, 0x00000000)  returns 0x00 (0000ms, 13589ms total)
T49FC 2521:871 JLINK_SetBPEx(Addr = 0x1FFFFC00, Type = 0xFFFFFFF2)  returns 0x00000009 (0000ms, 13589ms total)
T49FC 2521:871 JLINK_Go() -- CPU_WriteMem(4 bytes @ 0xE0002000) -- CPU_ReadMem(4 bytes @ 0xE0001000) -- CPU_WriteMem(4 bytes @ 0xE0001000) (0009ms, 13598ms total)
T49FC 2521:880 JLINK_IsHalted()  returns FALSE (0001ms, 13599ms total)
T49FC 2521:885 JLINK_IsHalted()  returns FALSE (0001ms, 13599ms total)
T49FC 2521:887 JLINK_IsHalted()  returns TRUE (0006ms, 13604ms total)
T49FC 2521:893 JLINK_ReadReg(R15 (PC))  returns 0x1FFFFC00 (0000ms, 13598ms total)
T49FC 2521:893 JLINK_ClrBPEx(BPHandle = 0x00000009)  returns 0x00 (0000ms, 13598ms total)
T49FC 2521:893 JLINK_ReadReg(R0)  returns 0x00000000 (0000ms, 13598ms total)
T49FC 2521:894 JLINK_WriteReg(R0, 0x00001000)  returns 0x00 (0000ms, 13598ms total)
T49FC 2521:894 JLINK_WriteReg(R1, 0x00000400)  returns 0x00 (0000ms, 13598ms total)
T49FC 2521:894 JLINK_WriteReg(R2, 0x000000FF)  returns 0x00 (0000ms, 13598ms total)
T49FC 2521:894 JLINK_WriteReg(R3, 0x00000000)  returns 0x00 (0000ms, 13598ms total)
T49FC 2521:894 JLINK_WriteReg(R4, 0x00000000)  returns 0x00 (0000ms, 13598ms total)
T49FC 2521:894 JLINK_WriteReg(R5, 0x00000000)  returns 0x00 (0000ms, 13598ms total)
T49FC 2521:894 JLINK_WriteReg(R6, 0x00000000)  returns 0x00 (0000ms, 13598ms total)
T49FC 2521:894 JLINK_WriteReg(R7, 0x00000000)  returns 0x00 (0000ms, 13598ms total)
T49FC 2521:894 JLINK_WriteReg(R8, 0x00000000)  returns 0x00 (0000ms, 13598ms total)
T49FC 2521:894 JLINK_WriteReg(R9, 0x200001C8)  returns 0x00 (0000ms, 13598ms total)
T49FC 2521:894 JLINK_WriteReg(R10, 0x00000000)  returns 0x00 (0000ms, 13598ms total)
T49FC 2521:894 JLINK_WriteReg(R11, 0x00000000)  returns 0x00 (0000ms, 13598ms total)
T49FC 2521:894 JLINK_WriteReg(R12, 0x00000000)  returns 0x00 (0000ms, 13598ms total)
T49FC 2521:894 JLINK_WriteReg(R13 (SP), 0x20000C00)  returns 0x00 (0000ms, 13598ms total)
T49FC 2521:894 JLINK_WriteReg(R14, 0x1FFFFC01)  returns 0x00 (0000ms, 13598ms total)
T49FC 2521:894 JLINK_WriteReg(R15 (PC), 0x1FFFFC68)  returns 0x00 (0000ms, 13598ms total)
T49FC 2521:894 JLINK_WriteReg(XPSR, 0x01000000)  returns 0x00 (0000ms, 13598ms total)
T49FC 2521:894 JLINK_WriteReg(MSP, 0x20000C00)  returns 0x00 (0000ms, 13598ms total)
T49FC 2521:894 JLINK_WriteReg(PSP, 0x20000C00)  returns 0x00 (0000ms, 13598ms total)
T49FC 2521:894 JLINK_WriteReg(CFBP, 0x00000000)  returns 0x00 (0000ms, 13598ms total)
T49FC 2521:894 JLINK_SetBPEx(Addr = 0x1FFFFC00, Type = 0xFFFFFFF2)  returns 0x0000000A (0000ms, 13598ms total)
T49FC 2521:894 JLINK_Go() -- CPU_WriteMem(4 bytes @ 0xE0002000) -- CPU_ReadMem(4 bytes @ 0xE0001000) -- CPU_WriteMem(4 bytes @ 0xE0001000) (0009ms, 13607ms total)
T49FC 2521:903 JLINK_IsHalted()  returns TRUE (0005ms, 13612ms total)
T49FC 2521:908 JLINK_ReadReg(R15 (PC))  returns 0x1FFFFC00 (0000ms, 13607ms total)
T49FC 2521:908 JLINK_ClrBPEx(BPHandle = 0x0000000A)  returns 0x00 (0000ms, 13607ms total)
T49FC 2521:908 JLINK_ReadReg(R0)  returns 0x00000001 (0000ms, 13607ms total)
T49FC 2521:908 JLINK_WriteReg(R0, 0x00001000)  returns 0x00 (0000ms, 13607ms total)
T49FC 2521:908 JLINK_WriteReg(R1, 0x00000400)  returns 0x00 (0000ms, 13607ms total)
T49FC 2521:908 JLINK_WriteReg(R2, 0x000000FF)  returns 0x00 (0000ms, 13607ms total)
T49FC 2521:908 JLINK_WriteReg(R3, 0x00000000)  returns 0x00 (0000ms, 13607ms total)
T49FC 2521:908 JLINK_WriteReg(R4, 0x00000000)  returns 0x00 (0000ms, 13607ms total)
T49FC 2521:908 JLINK_WriteReg(R5, 0x00000000)  returns 0x00 (0000ms, 13607ms total)
T49FC 2521:908 JLINK_WriteReg(R6, 0x00000000)  returns 0x00 (0000ms, 13607ms total)
T49FC 2521:908 JLINK_WriteReg(R7, 0x00000000)  returns 0x00 (0000ms, 13607ms total)
T49FC 2521:908 JLINK_WriteReg(R8, 0x00000000)  returns 0x00 (0000ms, 13607ms total)
T49FC 2521:908 JLINK_WriteReg(R9, 0x200001C8)  returns 0x00 (0000ms, 13607ms total)
T49FC 2521:908 JLINK_WriteReg(R10, 0x00000000)  returns 0x00 (0000ms, 13607ms total)
T49FC 2521:908 JLINK_WriteReg(R11, 0x00000000)  returns 0x00 (0000ms, 13607ms total)
T49FC 2521:908 JLINK_WriteReg(R12, 0x00000000)  returns 0x00 (0000ms, 13607ms total)
T49FC 2521:908 JLINK_WriteReg(R13 (SP), 0x20000C00)  returns 0x00 (0000ms, 13607ms total)
T49FC 2521:908 JLINK_WriteReg(R14, 0x1FFFFC01)  returns 0x00 (0000ms, 13607ms total)
T49FC 2521:908 JLINK_WriteReg(R15 (PC), 0x1FFFFCBC)  returns 0x00 (0000ms, 13607ms total)
T49FC 2521:908 JLINK_WriteReg(XPSR, 0x01000000)  returns 0x00 (0000ms, 13607ms total)
T49FC 2521:908 JLINK_WriteReg(MSP, 0x20000C00)  returns 0x00 (0000ms, 13607ms total)
T49FC 2521:908 JLINK_WriteReg(PSP, 0x20000C00)  returns 0x00 (0000ms, 13607ms total)
T49FC 2521:908 JLINK_WriteReg(CFBP, 0x00000000)  returns 0x00 (0001ms, 13608ms total)
T49FC 2521:909 JLINK_SetBPEx(Addr = 0x1FFFFC00, Type = 0xFFFFFFF2)  returns 0x0000000B (0000ms, 13608ms total)
T49FC 2521:909 JLINK_Go() -- CPU_WriteMem(4 bytes @ 0xE0002000) -- CPU_ReadMem(4 bytes @ 0xE0001000) -- CPU_WriteMem(4 bytes @ 0xE0001000) (0008ms, 13616ms total)
T49FC 2521:917 JLINK_IsHalted()  returns FALSE (0001ms, 13617ms total)
T49FC 2521:919 JLINK_IsHalted()  returns FALSE (0000ms, 13616ms total)
T49FC 2521:922 JLINK_IsHalted()  returns FALSE (0001ms, 13617ms total)
T49FC 2521:924 JLINK_IsHalted()  returns TRUE (0006ms, 13622ms total)
T49FC 2521:930 JLINK_ReadReg(R15 (PC))  returns 0x1FFFFC00 (0000ms, 13616ms total)
T49FC 2521:930 JLINK_ClrBPEx(BPHandle = 0x0000000B)  returns 0x00 (0000ms, 13616ms total)
T49FC 2521:930 JLINK_ReadReg(R0)  returns 0x00000000 (0000ms, 13616ms total)
T49FC 2521:930 JLINK_WriteReg(R0, 0x00000001)  returns 0x00 (0000ms, 13616ms total)
T49FC 2521:930 JLINK_WriteReg(R1, 0x00000400)  returns 0x00 (0000ms, 13616ms total)
T49FC 2521:930 JLINK_WriteReg(R2, 0x000000FF)  returns 0x00 (0000ms, 13616ms total)
T49FC 2521:930 JLINK_WriteReg(R3, 0x00000000)  returns 0x00 (0000ms, 13616ms total)
T49FC 2521:930 JLINK_WriteReg(R4, 0x00000000)  returns 0x00 (0000ms, 13616ms total)
T49FC 2521:930 JLINK_WriteReg(R5, 0x00000000)  returns 0x00 (0000ms, 13616ms total)
T49FC 2521:930 JLINK_WriteReg(R6, 0x00000000)  returns 0x00 (0000ms, 13616ms total)
T49FC 2521:930 JLINK_WriteReg(R7, 0x00000000)  returns 0x00 (0000ms, 13616ms total)
T49FC 2521:930 JLINK_WriteReg(R8, 0x00000000)  returns 0x00 (0000ms, 13616ms total)
T49FC 2521:930 JLINK_WriteReg(R9, 0x200001C8)  returns 0x00 (0000ms, 13616ms total)
T49FC 2521:930 JLINK_WriteReg(R10, 0x00000000)  returns 0x00 (0000ms, 13616ms total)
T49FC 2521:930 JLINK_WriteReg(R11, 0x00000000)  returns 0x00 (0000ms, 13616ms total)
T49FC 2521:930 JLINK_WriteReg(R12, 0x00000000)  returns 0x00 (0000ms, 13616ms total)
T49FC 2521:930 JLINK_WriteReg(R13 (SP), 0x20000C00)  returns 0x00 (0000ms, 13616ms total)
T49FC 2521:930 JLINK_WriteReg(R14, 0x1FFFFC01)  returns 0x00 (0000ms, 13616ms total)
T49FC 2521:930 JLINK_WriteReg(R15 (PC), 0x1FFFFC64)  returns 0x00 (0000ms, 13616ms total)
T49FC 2521:930 JLINK_WriteReg(XPSR, 0x01000000)  returns 0x00 (0000ms, 13616ms total)
T49FC 2521:930 JLINK_WriteReg(MSP, 0x20000C00)  returns 0x00 (0000ms, 13616ms total)
T49FC 2521:930 JLINK_WriteReg(PSP, 0x20000C00)  returns 0x00 (0000ms, 13616ms total)
T49FC 2521:930 JLINK_WriteReg(CFBP, 0x00000000)  returns 0x00 (0000ms, 13616ms total)
T49FC 2521:930 JLINK_SetBPEx(Addr = 0x1FFFFC00, Type = 0xFFFFFFF2)  returns 0x0000000C (0000ms, 13616ms total)
T49FC 2521:930 JLINK_Go() -- CPU_WriteMem(4 bytes @ 0xE0002000) -- CPU_ReadMem(4 bytes @ 0xE0001000) -- CPU_WriteMem(4 bytes @ 0xE0001000) (0009ms, 13625ms total)
T49FC 2521:939 JLINK_IsHalted()  returns TRUE (0006ms, 13631ms total)
T49FC 2521:945 JLINK_ReadReg(R15 (PC))  returns 0x1FFFFC00 (0000ms, 13625ms total)
T49FC 2521:945 JLINK_ClrBPEx(BPHandle = 0x0000000C)  returns 0x00 (0000ms, 13625ms total)
T49FC 2521:945 JLINK_ReadReg(R0)  returns 0x00000000 (0000ms, 13625ms total)
T49FC 2522:017 JLINK_WriteMem(0x1FFFFC00, 0x05D0 Bytes, ...) - Data: 00 BE 0A E0 0D 78 2D 06 68 40 08 24 40 00 00 D3 ... -- CPU_WriteMem(1488 bytes @ 0x1FFFFC00)  returns 0x5D0 (0018ms, 13643ms total)
T49FC 2522:035 JLINK_WriteReg(R0, 0x00000000)  returns 0x00 (0000ms, 13643ms total)
T49FC 2522:035 JLINK_WriteReg(R1, 0x00B71B00)  returns 0x00 (0000ms, 13643ms total)
T49FC 2522:035 JLINK_WriteReg(R2, 0x00000002)  returns 0x00 (0000ms, 13643ms total)
T49FC 2522:035 JLINK_WriteReg(R3, 0x00000000)  returns 0x00 (0000ms, 13643ms total)
T49FC 2522:035 JLINK_WriteReg(R4, 0x00000000)  returns 0x00 (0000ms, 13643ms total)
T49FC 2522:035 JLINK_WriteReg(R5, 0x00000000)  returns 0x00 (0000ms, 13643ms total)
T49FC 2522:035 JLINK_WriteReg(R6, 0x00000000)  returns 0x00 (0000ms, 13643ms total)
T49FC 2522:035 JLINK_WriteReg(R7, 0x00000000)  returns 0x00 (0000ms, 13643ms total)
T49FC 2522:035 JLINK_WriteReg(R8, 0x00000000)  returns 0x00 (0000ms, 13643ms total)
T49FC 2522:035 JLINK_WriteReg(R9, 0x200001C8)  returns 0x00 (0000ms, 13643ms total)
T49FC 2522:035 JLINK_WriteReg(R10, 0x00000000)  returns 0x00 (0000ms, 13643ms total)
T49FC 2522:035 JLINK_WriteReg(R11, 0x00000000)  returns 0x00 (0000ms, 13643ms total)
T49FC 2522:035 JLINK_WriteReg(R12, 0x00000000)  returns 0x00 (0000ms, 13643ms total)
T49FC 2522:035 JLINK_WriteReg(R13 (SP), 0x20000C00)  returns 0x00 (0000ms, 13643ms total)
T49FC 2522:035 JLINK_WriteReg(R14, 0x1FFFFC01)  returns 0x00 (0000ms, 13643ms total)
T49FC 2522:035 JLINK_WriteReg(R15 (PC), 0x1FFFFC20)  returns 0x00 (0000ms, 13643ms total)
T49FC 2522:035 JLINK_WriteReg(XPSR, 0x01000000)  returns 0x00 (0000ms, 13643ms total)
T49FC 2522:035 JLINK_WriteReg(MSP, 0x20000C00)  returns 0x00 (0000ms, 13643ms total)
T49FC 2522:035 JLINK_WriteReg(PSP, 0x20000C00)  returns 0x00 (0000ms, 13643ms total)
T49FC 2522:035 JLINK_WriteReg(CFBP, 0x00000000)  returns 0x00 (0000ms, 13643ms total)
T49FC 2522:035 JLINK_SetBPEx(Addr = 0x1FFFFC00, Type = 0xFFFFFFF2)  returns 0x0000000D (0000ms, 13643ms total)
T49FC 2522:035 JLINK_Go() -- CPU_WriteMem(4 bytes @ 0xE0002000) -- CPU_ReadMem(4 bytes @ 0xE0001000) -- CPU_WriteMem(4 bytes @ 0xE0001000) (0008ms, 13651ms total)
T49FC 2522:043 JLINK_IsHalted()  returns TRUE (0005ms, 13656ms total)
T49FC 2522:048 JLINK_ReadReg(R15 (PC))  returns 0x1FFFFC00 (0000ms, 13651ms total)
T49FC 2522:048 JLINK_ClrBPEx(BPHandle = 0x0000000D)  returns 0x00 (0000ms, 13651ms total)
T49FC 2522:048 JLINK_ReadReg(R0)  returns 0x00000000 (0000ms, 13651ms total)
T49FC 2522:048 JLINK_WriteMem(0x200001F8, 0x0100 Bytes, ...) - Data: A8 FE FF 1F B1 01 00 00 B9 01 00 00 BB 01 00 00 ... -- CPU_WriteMem(256 bytes @ 0x200001F8)  returns 0x100 (0005ms, 13656ms total)
T49FC 2522:053 JLINK_WriteReg(R0, 0x00000000)  returns 0x00 (0000ms, 13656ms total)
T49FC 2522:053 JLINK_WriteReg(R1, 0x00000100)  returns 0x00 (0000ms, 13656ms total)
T49FC 2522:053 JLINK_WriteReg(R2, 0x200001F8)  returns 0x00 (0000ms, 13656ms total)
T49FC 2522:053 JLINK_WriteReg(R3, 0x00000000)  returns 0x00 (0000ms, 13656ms total)
T49FC 2522:053 JLINK_WriteReg(R4, 0x00000000)  returns 0x00 (0000ms, 13656ms total)
T49FC 2522:053 JLINK_WriteReg(R5, 0x00000000)  returns 0x00 (0000ms, 13656ms total)
T49FC 2522:053 JLINK_WriteReg(R6, 0x00000000)  returns 0x00 (0000ms, 13656ms total)
T49FC 2522:053 JLINK_WriteReg(R7, 0x00000000)  returns 0x00 (0000ms, 13656ms total)
T49FC 2522:053 JLINK_WriteReg(R8, 0x00000000)  returns 0x00 (0000ms, 13656ms total)
T49FC 2522:053 JLINK_WriteReg(R9, 0x200001C8)  returns 0x00 (0000ms, 13656ms total)
T49FC 2522:053 JLINK_WriteReg(R10, 0x00000000)  returns 0x00 (0000ms, 13656ms total)
T49FC 2522:053 JLINK_WriteReg(R11, 0x00000000)  returns 0x00 (0000ms, 13656ms total)
T49FC 2522:053 JLINK_WriteReg(R12, 0x00000000)  returns 0x00 (0000ms, 13656ms total)
T49FC 2522:053 JLINK_WriteReg(R13 (SP), 0x20000C00)  returns 0x00 (0000ms, 13656ms total)
T49FC 2522:053 JLINK_WriteReg(R14, 0x1FFFFC01)  returns 0x00 (0000ms, 13656ms total)
T49FC 2522:053 JLINK_WriteReg(R15 (PC), 0x1FFFFCD4)  returns 0x00 (0000ms, 13656ms total)
T49FC 2522:053 JLINK_WriteReg(XPSR, 0x01000000)  returns 0x00 (0000ms, 13656ms total)
T49FC 2522:053 JLINK_WriteReg(MSP, 0x20000C00)  returns 0x00 (0000ms, 13656ms total)
T49FC 2522:053 JLINK_WriteReg(PSP, 0x20000C00)  returns 0x00 (0000ms, 13656ms total)
T49FC 2522:053 JLINK_WriteReg(CFBP, 0x00000000)  returns 0x00 (0000ms, 13656ms total)
T49FC 2522:053 JLINK_SetBPEx(Addr = 0x1FFFFC00, Type = 0xFFFFFFF2)  returns 0x0000000E (0001ms, 13657ms total)
T49FC 2522:054 JLINK_Go() -- CPU_WriteMem(4 bytes @ 0xE0002000) -- CPU_ReadMem(4 bytes @ 0xE0001000) -- CPU_WriteMem(4 bytes @ 0xE0001000) (0006ms, 13663ms total)
T49FC 2522:061 JLINK_IsHalted()  returns FALSE (0001ms, 13664ms total)
T49FC 2522:069 JLINK_IsHalted()  returns TRUE (0005ms, 13668ms total)
T49FC 2522:074 JLINK_ReadReg(R15 (PC))  returns 0x1FFFFC00 (0000ms, 13663ms total)
T49FC 2522:074 JLINK_ClrBPEx(BPHandle = 0x0000000E)  returns 0x00 (0000ms, 13663ms total)
T49FC 2522:074 JLINK_ReadReg(R0)  returns 0x00000000 (0000ms, 13663ms total)
T49FC 2522:075 JLINK_WriteMem(0x200001F8, 0x0100 Bytes, ...) - Data: AC 10 00 00 10 3A 02 D3 78 C8 78 C1 FA D8 52 07 ... -- CPU_WriteMem(256 bytes @ 0x200001F8)  returns 0x100 (0004ms, 13667ms total)
T49FC 2522:079 JLINK_WriteReg(R0, 0x00000100)  returns 0x00 (0000ms, 13667ms total)
T49FC 2522:079 JLINK_WriteReg(R1, 0x00000100)  returns 0x00 (0000ms, 13667ms total)
T49FC 2522:079 JLINK_WriteReg(R2, 0x200001F8)  returns 0x00 (0000ms, 13667ms total)
T49FC 2522:079 JLINK_WriteReg(R3, 0x00000000)  returns 0x00 (0000ms, 13667ms total)
T49FC 2522:079 JLINK_WriteReg(R4, 0x00000000)  returns 0x00 (0000ms, 13667ms total)
T49FC 2522:079 JLINK_WriteReg(R5, 0x00000000)  returns 0x00 (0000ms, 13667ms total)
T49FC 2522:079 JLINK_WriteReg(R6, 0x00000000)  returns 0x00 (0000ms, 13667ms total)
T49FC 2522:079 JLINK_WriteReg(R7, 0x00000000)  returns 0x00 (0000ms, 13667ms total)
T49FC 2522:079 JLINK_WriteReg(R8, 0x00000000)  returns 0x00 (0000ms, 13667ms total)
T49FC 2522:079 JLINK_WriteReg(R9, 0x200001C8)  returns 0x00 (0000ms, 13667ms total)
T49FC 2522:079 JLINK_WriteReg(R10, 0x00000000)  returns 0x00 (0000ms, 13667ms total)
T49FC 2522:079 JLINK_WriteReg(R11, 0x00000000)  returns 0x00 (0000ms, 13667ms total)
T49FC 2522:079 JLINK_WriteReg(R12, 0x00000000)  returns 0x00 (0000ms, 13667ms total)
T49FC 2522:079 JLINK_WriteReg(R13 (SP), 0x20000C00)  returns 0x00 (0000ms, 13667ms total)
T49FC 2522:079 JLINK_WriteReg(R14, 0x1FFFFC01)  returns 0x00 (0000ms, 13667ms total)
T49FC 2522:079 JLINK_WriteReg(R15 (PC), 0x1FFFFCD4)  returns 0x00 (0000ms, 13667ms total)
T49FC 2522:079 JLINK_WriteReg(XPSR, 0x01000000)  returns 0x00 (0000ms, 13667ms total)
T49FC 2522:079 JLINK_WriteReg(MSP, 0x20000C00)  returns 0x00 (0000ms, 13667ms total)
T49FC 2522:079 JLINK_WriteReg(PSP, 0x20000C00)  returns 0x00 (0000ms, 13667ms total)
T49FC 2522:079 JLINK_WriteReg(CFBP, 0x00000000)  returns 0x00 (0000ms, 13667ms total)
T49FC 2522:079 JLINK_SetBPEx(Addr = 0x1FFFFC00, Type = 0xFFFFFFF2)  returns 0x0000000F (0000ms, 13667ms total)
T49FC 2522:080 JLINK_Go() -- CPU_WriteMem(4 bytes @ 0xE0002000) -- CPU_ReadMem(4 bytes @ 0xE0001000) -- CPU_WriteMem(4 bytes @ 0xE0001000) (0009ms, 13676ms total)
T49FC 2522:089 JLINK_IsHalted()  returns FALSE (0001ms, 13677ms total)
T49FC 2522:096 JLINK_IsHalted()  returns TRUE (0006ms, 13682ms total)
T49FC 2522:102 JLINK_ReadReg(R15 (PC))  returns 0x1FFFFC00 (0000ms, 13676ms total)
T49FC 2522:102 JLINK_ClrBPEx(BPHandle = 0x0000000F)  returns 0x00 (0000ms, 13676ms total)
T49FC 2522:102 JLINK_ReadReg(R0)  returns 0x00000000 (0000ms, 13676ms total)
T49FC 2522:103 JLINK_WriteMem(0x200001F8, 0x0100 Bytes, ...) - Data: 1C BC 08 BC 04 B0 18 47 E7 01 00 00 F8 B5 0E 46 ... -- CPU_WriteMem(256 bytes @ 0x200001F8)  returns 0x100 (0004ms, 13680ms total)
T49FC 2522:107 JLINK_WriteReg(R0, 0x00000200)  returns 0x00 (0000ms, 13680ms total)
T49FC 2522:107 JLINK_WriteReg(R1, 0x00000100)  returns 0x00 (0000ms, 13680ms total)
T49FC 2522:107 JLINK_WriteReg(R2, 0x200001F8)  returns 0x00 (0000ms, 13680ms total)
T49FC 2522:107 JLINK_WriteReg(R3, 0x00000000)  returns 0x00 (0000ms, 13680ms total)
T49FC 2522:107 JLINK_WriteReg(R4, 0x00000000)  returns 0x00 (0000ms, 13680ms total)
T49FC 2522:107 JLINK_WriteReg(R5, 0x00000000)  returns 0x00 (0000ms, 13680ms total)
T49FC 2522:107 JLINK_WriteReg(R6, 0x00000000)  returns 0x00 (0000ms, 13680ms total)
T49FC 2522:107 JLINK_WriteReg(R7, 0x00000000)  returns 0x00 (0000ms, 13680ms total)
T49FC 2522:107 JLINK_WriteReg(R8, 0x00000000)  returns 0x00 (0001ms, 13681ms total)
T49FC 2522:108 JLINK_WriteReg(R9, 0x200001C8)  returns 0x00 (0000ms, 13681ms total)
T49FC 2522:108 JLINK_WriteReg(R10, 0x00000000)  returns 0x00 (0000ms, 13681ms total)
T49FC 2522:108 JLINK_WriteReg(R11, 0x00000000)  returns 0x00 (0000ms, 13681ms total)
T49FC 2522:108 JLINK_WriteReg(R12, 0x00000000)  returns 0x00 (0000ms, 13681ms total)
T49FC 2522:108 JLINK_WriteReg(R13 (SP), 0x20000C00)  returns 0x00 (0000ms, 13681ms total)
T49FC 2522:108 JLINK_WriteReg(R14, 0x1FFFFC01)  returns 0x00 (0000ms, 13681ms total)
T49FC 2522:108 JLINK_WriteReg(R15 (PC), 0x1FFFFCD4)  returns 0x00 (0000ms, 13681ms total)
T49FC 2522:108 JLINK_WriteReg(XPSR, 0x01000000)  returns 0x00 (0000ms, 13681ms total)
T49FC 2522:108 JLINK_WriteReg(MSP, 0x20000C00)  returns 0x00 (0000ms, 13681ms total)
T49FC 2522:108 JLINK_WriteReg(PSP, 0x20000C00)  returns 0x00 (0000ms, 13681ms total)
